# 上位机开发

## 基于C#开发部署于Linux_ARM架构下上位机控制端

- 基于SerialPort开发多串口通信
  - 端口检测、开启/关闭、发送/接受
  - 串口应答-采用同步方式进行串口通信
- 基于modbusRTU协议读写解析串口数据
  - 16进制字节数组转换、读写寄存器、解析响应数据
  - 部分解析使用特殊处理，其余使用统一方法
- 基于Log4Net日志记录系统
  - 控制台日志
  - 文件日志
- 设备实例-设备协议指令转换
  - 配置表（后期维护）
  - 温度感应
    - 获取温度_设备是否异常
  - 门控
    - 门控状态_设备是否异常
    - 开启/关闭门锁
  - 价签
    - 获取显示_设备是否异常
    - 设置价签显示
  - 称重
    - 设备状态_设备是否异常
    - 重量检测
- MQTT客户端
  - 双端，两套不同的发送订阅验证对应不同的门
  - 账密验证
  - 断线重连机制，暂定为5分钟
- 指令转换
  - mqtt服务端发送组合指令
  - 组合指令拆解单条指令
  - 单条指令解析单条modbusRTU协议指令
  
## 目录结构

```C#
.
|-- component   // 返回体/加载配置
|   |-- ResultData.cs
|   `-- Setting.cs
|-- configs             //配置文件
|   `-- appsetting.dev.json
|-- devices     // 设备modbus协议转换
|   |-- DevicesType.cs  // 设备统一调用入口
|   |-- gating
|   |   `-- Gating.cs  // 门控
|   |-- label
|   |   `-- Label.cs  // 价签
|   |-- temperature
|   |   `-- Temperature.cs  // 温度感应
|   `-- weigh
|       `-- Weigh.cs   // 称重传感
|-- entity              // 报文命令实体回调
|   |-- CombinationInstructions.cs   // 复合指令
|   |-- JsonCommon.cs   // 单条指令
|   `-- SerialPortCom.cs  // 多串口
|-- messages        // 报文解析
|   |-- AnalysisMessage.cs
|   |-- ReadType.cs
|   |-- RequestRTU.cs
|   |-- ResponseRTU.cs
|   `-- WriteType.cs
|-- mqtt        //mqtt类
|   |-- LMqttClientService.cs  // 左门mqtt
|   |-- MqttSerialPortCommon.cs  // 统一指令转换
|   `-- RMqttClientService .cs   // 右门mqtt
|-- serialPortUtils     //serial串口类
|   |-- SerialPortGenerate.cs  // 串口加载
|   `-- SerialPortPlus.cs  // 串口基础
|-- service         // 服务层
|   |-- DebugService.cs  // debug模式
|   `-- DevicesService.cs  // 标准入口
|-- utils           //工具类
|   |-- CheckSum.cs  // CRC
|   |-- Conversion.cs 
|   |-- JsonUtils.cs
|   |-- LogHelp.cs
|   `-- SystemStatus.cs
|-- App.config      // 项目/日志配置
`--  Program.cs
```

## 上位机工作流程

- 主程序启动
- 启动串口
  - 连接目标串口
- 启动mqtt
  - 连接目标服务器
  - 服务器验证成功/失败
- 设备上线/下线

## 指令集

空调控制器

02 04 00 02 00 01 90 39 获取库温

02 04 00 01 00 01 60 39 状态  
0000 关机  0001 待机 0002 制冷延时 0003 制冷 0004 制热 0005 化霜 0006 滴水 其他无效

02 03 00 01 00 01 D5 F9 获取停机温度

02 03 00 02 00 01 25 F9 获取开机温度

02 06 00 01 FF CE 18 5D 设置停止温度 -5

02 06 00 02 FF EC 68 44 设置开机温度 -2

02 06 00 03 00 1E F9 F1 温差设置
