1号地址门锁
2号温控
3号称重版
4-~ 为数码管 

空调控制器

02 04 00 02 00 01 90 39 获取库温

02 04 00 01 00 01 60 39 状态  
0000 关机  0001 待机 0002 制冷延时 0003 制冷 0004 制热 0005 化霜 0006 滴水 其他无效

02 03 00 01 00 01 D5 F9 获取停机温度

02 03 00 02 00 01 25 F9 获取开机温度

02 06 00 01 FF CE 18 5D 设置停止温度 -5

02 06 00 02 FF EC 68 44 设置开机温度 -2

02 06 00 03 00 1E F9 F1 温差设置